Freq.	V(n0)	V(n1)
1.00000e-001	(0.00000e+000dB,0.00000e+000°)	(-1.14494e+002dB,8.99999e+001°)
1.01099e+001	(0.00000e+000dB,0.00000e+000°)	(-7.43990e+001dB,8.99891e+001°)
2.01198e+001	(0.00000e+000dB,0.00000e+000°)	(-6.84215e+001dB,8.99783e+001°)
3.01297e+001	(0.00000e+000dB,0.00000e+000°)	(-6.49141e+001dB,8.99675e+001°)
4.01396e+001	(0.00000e+000dB,0.00000e+000°)	(-6.24225e+001dB,8.99566e+001°)
5.01495e+001	(0.00000e+000dB,0.00000e+000°)	(-6.04886e+001dB,8.99458e+001°)
6.01595e+001	(0.00000e+000dB,0.00000e+000°)	(-5.89079e+001dB,8.99350e+001°)
7.01694e+001	(0.00000e+000dB,0.00000e+000°)	(-5.75710e+001dB,8.99242e+001°)
8.01793e+001	(0.00000e+000dB,0.00000e+000°)	(-5.64127e+001dB,8.99134e+001°)
9.01892e+001	(0.00000e+000dB,0.00000e+000°)	(-5.53909e+001dB,8.99026e+001°)
1.00199e+002	(0.00000e+000dB,0.00000e+000°)	(-5.44767e+001dB,8.98918e+001°)
1.10209e+002	(0.00000e+000dB,0.00000e+000°)	(-5.36497e+001dB,8.98810e+001°)
1.20219e+002	(0.00000e+000dB,0.00000e+000°)	(-5.28945e+001dB,8.98702e+001°)
1.30229e+002	(0.00000e+000dB,0.00000e+000°)	(-5.21999e+001dB,8.98594e+001°)
1.40239e+002	(0.00000e+000dB,0.00000e+000°)	(-5.15566e+001dB,8.98485e+001°)
1.50249e+002	(0.00000e+000dB,0.00000e+000°)	(-5.09578e+001dB,8.98377e+001°)
1.60259e+002	(0.00000e+000dB,0.00000e+000°)	(-5.03976e+001dB,8.98269e+001°)
1.70268e+002	(0.00000e+000dB,0.00000e+000°)	(-4.98713e+001dB,8.98161e+001°)
1.80278e+002	(0.00000e+000dB,0.00000e+000°)	(-4.93752e+001dB,8.98053e+001°)
1.90288e+002	(0.00000e+000dB,0.00000e+000°)	(-4.89058e+001dB,8.97945e+001°)
2.00298e+002	(0.00000e+000dB,0.00000e+000°)	(-4.84605e+001dB,8.97837e+001°)
2.10308e+002	(0.00000e+000dB,0.00000e+000°)	(-4.80369e+001dB,8.97729e+001°)
2.20318e+002	(0.00000e+000dB,0.00000e+000°)	(-4.76331e+001dB,8.97621e+001°)
2.30328e+002	(0.00000e+000dB,0.00000e+000°)	(-4.72471e+001dB,8.97512e+001°)
2.40338e+002	(0.00000e+000dB,0.00000e+000°)	(-4.68776e+001dB,8.97404e+001°)
2.50348e+002	(0.00000e+000dB,0.00000e+000°)	(-4.65232e+001dB,8.97296e+001°)
2.60358e+002	(0.00000e+000dB,0.00000e+000°)	(-4.61827e+001dB,8.97188e+001°)
2.70368e+002	(0.00000e+000dB,0.00000e+000°)	(-4.58550e+001dB,8.97080e+001°)
2.80377e+002	(0.00000e+000dB,0.00000e+000°)	(-4.55392e+001dB,8.96972e+001°)
2.90387e+002	(0.00000e+000dB,0.00000e+000°)	(-4.52346e+001dB,8.96864e+001°)
3.00397e+002	(0.00000e+000dB,0.00000e+000°)	(-4.49402e+001dB,8.96756e+001°)
3.10407e+002	(0.00000e+000dB,0.00000e+000°)	(-4.46555e+001dB,8.96648e+001°)
3.20417e+002	(0.00000e+000dB,0.00000e+000°)	(-4.43798e+001dB,8.96540e+001°)
3.30427e+002	(0.00000e+000dB,0.00000e+000°)	(-4.41126e+001dB,8.96431e+001°)
3.40437e+002	(0.00000e+000dB,0.00000e+000°)	(-4.38534e+001dB,8.96323e+001°)
3.50447e+002	(0.00000e+000dB,0.00000e+000°)	(-4.36017e+001dB,8.96215e+001°)
3.60457e+002	(0.00000e+000dB,0.00000e+000°)	(-4.33571e+001dB,8.96107e+001°)
3.70467e+002	(0.00000e+000dB,0.00000e+000°)	(-4.31192e+001dB,8.95999e+001°)
3.80477e+002	(0.00000e+000dB,0.00000e+000°)	(-4.28876e+001dB,8.95891e+001°)
3.90486e+002	(0.00000e+000dB,0.00000e+000°)	(-4.26621e+001dB,8.95783e+001°)
4.00496e+002	(0.00000e+000dB,0.00000e+000°)	(-4.24423e+001dB,8.95675e+001°)
4.10506e+002	(0.00000e+000dB,0.00000e+000°)	(-4.22278e+001dB,8.95567e+001°)
4.20516e+002	(0.00000e+000dB,0.00000e+000°)	(-4.20186e+001dB,8.95459e+001°)
4.30526e+002	(0.00000e+000dB,0.00000e+000°)	(-4.18143e+001dB,8.95350e+001°)
4.40536e+002	(0.00000e+000dB,0.00000e+000°)	(-4.16146e+001dB,8.95242e+001°)
4.50546e+002	(0.00000e+000dB,0.00000e+000°)	(-4.14195e+001dB,8.95134e+001°)
4.60556e+002	(0.00000e+000dB,0.00000e+000°)	(-4.12287e+001dB,8.95026e+001°)
4.70566e+002	(0.00000e+000dB,0.00000e+000°)	(-4.10419e+001dB,8.94918e+001°)
4.80576e+002	(0.00000e+000dB,0.00000e+000°)	(-4.08591e+001dB,8.94810e+001°)
4.90586e+002	(0.00000e+000dB,0.00000e+000°)	(-4.06801e+001dB,8.94702e+001°)
5.00595e+002	(0.00000e+000dB,0.00000e+000°)	(-4.05046e+001dB,8.94594e+001°)
5.10605e+002	(0.00000e+000dB,0.00000e+000°)	(-4.03327e+001dB,8.94486e+001°)
5.20615e+002	(0.00000e+000dB,0.00000e+000°)	(-4.01641e+001dB,8.94378e+001°)
5.30625e+002	(0.00000e+000dB,0.00000e+000°)	(-3.99987e+001dB,8.94269e+001°)
5.40635e+002	(0.00000e+000dB,0.00000e+000°)	(-3.98363e+001dB,8.94161e+001°)
5.50645e+002	(0.00000e+000dB,0.00000e+000°)	(-3.96770e+001dB,8.94053e+001°)
5.60655e+002	(0.00000e+000dB,0.00000e+000°)	(-3.95205e+001dB,8.93945e+001°)
5.70665e+002	(0.00000e+000dB,0.00000e+000°)	(-3.93669e+001dB,8.93837e+001°)
5.80675e+002	(0.00000e+000dB,0.00000e+000°)	(-3.92158e+001dB,8.93729e+001°)
5.90685e+002	(0.00000e+000dB,0.00000e+000°)	(-3.90674e+001dB,8.93621e+001°)
6.00695e+002	(0.00000e+000dB,0.00000e+000°)	(-3.89215e+001dB,8.93513e+001°)
6.10705e+002	(0.00000e+000dB,0.00000e+000°)	(-3.87779e+001dB,8.93405e+001°)
6.20714e+002	(0.00000e+000dB,0.00000e+000°)	(-3.86367e+001dB,8.93297e+001°)
6.30724e+002	(0.00000e+000dB,0.00000e+000°)	(-3.84978e+001dB,8.93188e+001°)
6.40734e+002	(0.00000e+000dB,0.00000e+000°)	(-3.83611e+001dB,8.93080e+001°)
6.50744e+002	(0.00000e+000dB,0.00000e+000°)	(-3.82264e+001dB,8.92972e+001°)
6.60754e+002	(0.00000e+000dB,0.00000e+000°)	(-3.80939e+001dB,8.92864e+001°)
6.70764e+002	(0.00000e+000dB,0.00000e+000°)	(-3.79633e+001dB,8.92756e+001°)
6.80774e+002	(0.00000e+000dB,0.00000e+000°)	(-3.78346e+001dB,8.92648e+001°)
6.90784e+002	(0.00000e+000dB,0.00000e+000°)	(-3.77079e+001dB,8.92540e+001°)
7.00794e+002	(0.00000e+000dB,0.00000e+000°)	(-3.75829e+001dB,8.92432e+001°)
7.10804e+002	(0.00000e+000dB,0.00000e+000°)	(-3.74598e+001dB,8.92324e+001°)
7.20814e+002	(0.00000e+000dB,0.00000e+000°)	(-3.73383e+001dB,8.92216e+001°)
7.30823e+002	(0.00000e+000dB,0.00000e+000°)	(-3.72186e+001dB,8.92108e+001°)
7.40833e+002	(0.00000e+000dB,0.00000e+000°)	(-3.71004e+001dB,8.92000e+001°)
7.50843e+002	(0.00000e+000dB,0.00000e+000°)	(-3.69839e+001dB,8.91891e+001°)
7.60853e+002	(0.00000e+000dB,0.00000e+000°)	(-3.68689e+001dB,8.91783e+001°)
7.70863e+002	(0.00000e+000dB,0.00000e+000°)	(-3.67553e+001dB,8.91675e+001°)
7.80873e+002	(0.00000e+000dB,0.00000e+000°)	(-3.66433e+001dB,8.91567e+001°)
7.90883e+002	(0.00000e+000dB,0.00000e+000°)	(-3.65327e+001dB,8.91459e+001°)
8.00893e+002	(0.00000e+000dB,0.00000e+000°)	(-3.64235e+001dB,8.91351e+001°)
8.10903e+002	(0.00000e+000dB,0.00000e+000°)	(-3.63156e+001dB,8.91243e+001°)
8.20913e+002	(0.00000e+000dB,0.00000e+000°)	(-3.62091e+001dB,8.91135e+001°)
8.30923e+002	(0.00000e+000dB,0.00000e+000°)	(-3.61038e+001dB,8.91027e+001°)
8.40932e+002	(0.00000e+000dB,0.00000e+000°)	(-3.59998e+001dB,8.90919e+001°)
8.50942e+002	(0.00000e+000dB,0.00000e+000°)	(-3.58971e+001dB,8.90811e+001°)
8.60952e+002	(0.00000e+000dB,0.00000e+000°)	(-3.57955e+001dB,8.90703e+001°)
8.70962e+002	(0.00000e+000dB,0.00000e+000°)	(-3.56952e+001dB,8.90594e+001°)
8.80972e+002	(0.00000e+000dB,0.00000e+000°)	(-3.55959e+001dB,8.90486e+001°)
8.90982e+002	(0.00000e+000dB,0.00000e+000°)	(-3.54978e+001dB,8.90378e+001°)
9.00992e+002	(0.00000e+000dB,0.00000e+000°)	(-3.54008e+001dB,8.90270e+001°)
9.11002e+002	(0.00000e+000dB,0.00000e+000°)	(-3.53049e+001dB,8.90162e+001°)
9.21012e+002	(0.00000e+000dB,0.00000e+000°)	(-3.52100e+001dB,8.90054e+001°)
9.31022e+002	(0.00000e+000dB,0.00000e+000°)	(-3.51161e+001dB,8.89946e+001°)
9.41032e+002	(0.00000e+000dB,0.00000e+000°)	(-3.50233e+001dB,8.89838e+001°)
9.51041e+002	(0.00000e+000dB,0.00000e+000°)	(-3.49314e+001dB,8.89730e+001°)
9.61051e+002	(0.00000e+000dB,0.00000e+000°)	(-3.48405e+001dB,8.89622e+001°)
9.71061e+002	(0.00000e+000dB,0.00000e+000°)	(-3.47505e+001dB,8.89514e+001°)
9.81071e+002	(0.00000e+000dB,0.00000e+000°)	(-3.46615e+001dB,8.89406e+001°)
9.91081e+002	(0.00000e+000dB,0.00000e+000°)	(-3.45733e+001dB,8.89298e+001°)
1.00109e+003	(0.00000e+000dB,0.00000e+000°)	(-3.44861e+001dB,8.89190e+001°)
1.01110e+003	(0.00000e+000dB,0.00000e+000°)	(-3.43997e+001dB,8.89081e+001°)
1.02111e+003	(0.00000e+000dB,0.00000e+000°)	(-3.43141e+001dB,8.88973e+001°)
1.03112e+003	(0.00000e+000dB,0.00000e+000°)	(-3.42294e+001dB,8.88865e+001°)
1.04113e+003	(0.00000e+000dB,0.00000e+000°)	(-3.41455e+001dB,8.88757e+001°)
1.05114e+003	(0.00000e+000dB,0.00000e+000°)	(-3.40625e+001dB,8.88649e+001°)
1.06115e+003	(0.00000e+000dB,0.00000e+000°)	(-3.39802e+001dB,8.88541e+001°)
1.07116e+003	(0.00000e+000dB,0.00000e+000°)	(-3.38987e+001dB,8.88433e+001°)
1.08117e+003	(0.00000e+000dB,0.00000e+000°)	(-3.38179e+001dB,8.88325e+001°)
1.09118e+003	(0.00000e+000dB,0.00000e+000°)	(-3.37379e+001dB,8.88217e+001°)
1.10119e+003	(0.00000e+000dB,0.00000e+000°)	(-3.36586e+001dB,8.88109e+001°)
1.11120e+003	(0.00000e+000dB,0.00000e+000°)	(-3.35800e+001dB,8.88001e+001°)
1.12121e+003	(0.00000e+000dB,0.00000e+000°)	(-3.35022e+001dB,8.87893e+001°)
1.13122e+003	(0.00000e+000dB,0.00000e+000°)	(-3.34250e+001dB,8.87785e+001°)
1.14123e+003	(0.00000e+000dB,0.00000e+000°)	(-3.33485e+001dB,8.87677e+001°)
1.15124e+003	(0.00000e+000dB,0.00000e+000°)	(-3.32727e+001dB,8.87569e+001°)
1.16125e+003	(0.00000e+000dB,0.00000e+000°)	(-3.31975e+001dB,8.87461e+001°)
1.17126e+003	(0.00000e+000dB,0.00000e+000°)	(-3.31230e+001dB,8.87352e+001°)
1.18127e+003	(0.00000e+000dB,0.00000e+000°)	(-3.30492e+001dB,8.87244e+001°)
1.19128e+003	(0.00000e+000dB,0.00000e+000°)	(-3.29759e+001dB,8.87136e+001°)
1.20129e+003	(0.00000e+000dB,0.00000e+000°)	(-3.29033e+001dB,8.87028e+001°)
1.21130e+003	(0.00000e+000dB,0.00000e+000°)	(-3.28312e+001dB,8.86920e+001°)
1.22131e+003	(0.00000e+000dB,0.00000e+000°)	(-3.27598e+001dB,8.86812e+001°)
1.23132e+003	(0.00000e+000dB,0.00000e+000°)	(-3.26889e+001dB,8.86704e+001°)
1.24133e+003	(0.00000e+000dB,0.00000e+000°)	(-3.26186e+001dB,8.86596e+001°)
1.25134e+003	(0.00000e+000dB,0.00000e+000°)	(-3.25489e+001dB,8.86488e+001°)
1.26135e+003	(0.00000e+000dB,0.00000e+000°)	(-3.24797e+001dB,8.86380e+001°)
1.27136e+003	(0.00000e+000dB,0.00000e+000°)	(-3.24111e+001dB,8.86272e+001°)
1.28137e+003	(0.00000e+000dB,0.00000e+000°)	(-3.23430e+001dB,8.86164e+001°)
1.29138e+003	(0.00000e+000dB,0.00000e+000°)	(-3.22755e+001dB,8.86056e+001°)
1.30139e+003	(0.00000e+000dB,0.00000e+000°)	(-3.22085e+001dB,8.85948e+001°)
1.31140e+003	(0.00000e+000dB,0.00000e+000°)	(-3.21419e+001dB,8.85840e+001°)
1.32141e+003	(0.00000e+000dB,0.00000e+000°)	(-3.20759e+001dB,8.85732e+001°)
1.33142e+003	(0.00000e+000dB,0.00000e+000°)	(-3.20104e+001dB,8.85624e+001°)
1.34143e+003	(0.00000e+000dB,0.00000e+000°)	(-3.19454e+001dB,8.85516e+001°)
1.35144e+003	(0.00000e+000dB,0.00000e+000°)	(-3.18809e+001dB,8.85408e+001°)
1.36145e+003	(0.00000e+000dB,0.00000e+000°)	(-3.18168e+001dB,8.85300e+001°)
1.37146e+003	(0.00000e+000dB,0.00000e+000°)	(-3.17532e+001dB,8.85192e+001°)
1.38147e+003	(0.00000e+000dB,0.00000e+000°)	(-3.16901e+001dB,8.85084e+001°)
1.39148e+003	(0.00000e+000dB,0.00000e+000°)	(-3.16274e+001dB,8.84975e+001°)
1.40149e+003	(0.00000e+000dB,0.00000e+000°)	(-3.15652e+001dB,8.84867e+001°)
1.41150e+003	(0.00000e+000dB,0.00000e+000°)	(-3.15034e+001dB,8.84759e+001°)
1.42151e+003	(0.00000e+000dB,0.00000e+000°)	(-3.14421e+001dB,8.84651e+001°)
1.43152e+003	(0.00000e+000dB,0.00000e+000°)	(-3.13812e+001dB,8.84543e+001°)
1.44153e+003	(0.00000e+000dB,0.00000e+000°)	(-3.13207e+001dB,8.84435e+001°)
1.45154e+003	(0.00000e+000dB,0.00000e+000°)	(-3.12607e+001dB,8.84327e+001°)
1.46155e+003	(0.00000e+000dB,0.00000e+000°)	(-3.12010e+001dB,8.84219e+001°)
1.47156e+003	(0.00000e+000dB,0.00000e+000°)	(-3.11418e+001dB,8.84111e+001°)
1.48157e+003	(0.00000e+000dB,0.00000e+000°)	(-3.10829e+001dB,8.84003e+001°)
1.49158e+003	(0.00000e+000dB,0.00000e+000°)	(-3.10245e+001dB,8.83895e+001°)
1.50159e+003	(0.00000e+000dB,0.00000e+000°)	(-3.09664e+001dB,8.83787e+001°)
1.51160e+003	(0.00000e+000dB,0.00000e+000°)	(-3.09088e+001dB,8.83679e+001°)
1.52161e+003	(0.00000e+000dB,0.00000e+000°)	(-3.08515e+001dB,8.83571e+001°)
1.53162e+003	(0.00000e+000dB,0.00000e+000°)	(-3.07946e+001dB,8.83463e+001°)
1.54163e+003	(0.00000e+000dB,0.00000e+000°)	(-3.07381e+001dB,8.83355e+001°)
1.55164e+003	(0.00000e+000dB,0.00000e+000°)	(-3.06819e+001dB,8.83247e+001°)
1.56165e+003	(0.00000e+000dB,0.00000e+000°)	(-3.06261e+001dB,8.83139e+001°)
1.57166e+003	(0.00000e+000dB,0.00000e+000°)	(-3.05706e+001dB,8.83031e+001°)
1.58167e+003	(0.00000e+000dB,0.00000e+000°)	(-3.05155e+001dB,8.82923e+001°)
1.59168e+003	(0.00000e+000dB,0.00000e+000°)	(-3.04608e+001dB,8.82815e+001°)
1.60169e+003	(0.00000e+000dB,0.00000e+000°)	(-3.04064e+001dB,8.82707e+001°)
1.61170e+003	(0.00000e+000dB,0.00000e+000°)	(-3.03523e+001dB,8.82599e+001°)
1.62171e+003	(0.00000e+000dB,0.00000e+000°)	(-3.02986e+001dB,8.82491e+001°)
1.63172e+003	(0.00000e+000dB,0.00000e+000°)	(-3.02452e+001dB,8.82383e+001°)
1.64173e+003	(0.00000e+000dB,0.00000e+000°)	(-3.01921e+001dB,8.82275e+001°)
1.65174e+003	(0.00000e+000dB,0.00000e+000°)	(-3.01394e+001dB,8.82167e+001°)
1.66175e+003	(0.00000e+000dB,0.00000e+000°)	(-3.00869e+001dB,8.82059e+001°)
1.67175e+003	(0.00000e+000dB,0.00000e+000°)	(-3.00348e+001dB,8.81951e+001°)
1.68176e+003	(0.00000e+000dB,0.00000e+000°)	(-2.99830e+001dB,8.81843e+001°)
1.69177e+003	(0.00000e+000dB,0.00000e+000°)	(-2.99315e+001dB,8.81735e+001°)
1.70178e+003	(0.00000e+000dB,0.00000e+000°)	(-2.98804e+001dB,8.81627e+001°)
1.71179e+003	(0.00000e+000dB,0.00000e+000°)	(-2.98295e+001dB,8.81519e+001°)
1.72180e+003	(0.00000e+000dB,0.00000e+000°)	(-2.97789e+001dB,8.81411e+001°)
1.73181e+003	(0.00000e+000dB,0.00000e+000°)	(-2.97286e+001dB,8.81303e+001°)
1.74182e+003	(0.00000e+000dB,0.00000e+000°)	(-2.96786e+001dB,8.81195e+001°)
1.75183e+003	(0.00000e+000dB,0.00000e+000°)	(-2.96289e+001dB,8.81087e+001°)
1.76184e+003	(0.00000e+000dB,0.00000e+000°)	(-2.95794e+001dB,8.80979e+001°)
1.77185e+003	(0.00000e+000dB,0.00000e+000°)	(-2.95303e+001dB,8.80871e+001°)
1.78186e+003	(0.00000e+000dB,0.00000e+000°)	(-2.94814e+001dB,8.80763e+001°)
1.79187e+003	(0.00000e+000dB,0.00000e+000°)	(-2.94328e+001dB,8.80655e+001°)
1.80188e+003	(0.00000e+000dB,0.00000e+000°)	(-2.93844e+001dB,8.80547e+001°)
1.81189e+003	(0.00000e+000dB,0.00000e+000°)	(-2.93364e+001dB,8.80439e+001°)
1.82190e+003	(0.00000e+000dB,0.00000e+000°)	(-2.92886e+001dB,8.80331e+001°)
1.83191e+003	(0.00000e+000dB,0.00000e+000°)	(-2.92411e+001dB,8.80223e+001°)
1.84192e+003	(0.00000e+000dB,0.00000e+000°)	(-2.91938e+001dB,8.80115e+001°)
1.85193e+003	(0.00000e+000dB,0.00000e+000°)	(-2.91468e+001dB,8.80007e+001°)
1.86194e+003	(0.00000e+000dB,0.00000e+000°)	(-2.91000e+001dB,8.79899e+001°)
1.87195e+003	(0.00000e+000dB,0.00000e+000°)	(-2.90535e+001dB,8.79791e+001°)
1.88196e+003	(0.00000e+000dB,0.00000e+000°)	(-2.90072e+001dB,8.79683e+001°)
1.89197e+003	(0.00000e+000dB,0.00000e+000°)	(-2.89612e+001dB,8.79575e+001°)
1.90198e+003	(0.00000e+000dB,0.00000e+000°)	(-2.89154e+001dB,8.79467e+001°)
1.91199e+003	(0.00000e+000dB,0.00000e+000°)	(-2.88699e+001dB,8.79359e+001°)
1.92200e+003	(0.00000e+000dB,0.00000e+000°)	(-2.88246e+001dB,8.79251e+001°)
1.93201e+003	(0.00000e+000dB,0.00000e+000°)	(-2.87795e+001dB,8.79143e+001°)
1.94202e+003	(0.00000e+000dB,0.00000e+000°)	(-2.87347e+001dB,8.79036e+001°)
1.95203e+003	(0.00000e+000dB,0.00000e+000°)	(-2.86901e+001dB,8.78928e+001°)
1.96204e+003	(0.00000e+000dB,0.00000e+000°)	(-2.86457e+001dB,8.78820e+001°)
1.97205e+003	(0.00000e+000dB,0.00000e+000°)	(-2.86016e+001dB,8.78712e+001°)
1.98206e+003	(0.00000e+000dB,0.00000e+000°)	(-2.85577e+001dB,8.78604e+001°)
1.99207e+003	(0.00000e+000dB,0.00000e+000°)	(-2.85140e+001dB,8.78496e+001°)
2.00208e+003	(0.00000e+000dB,0.00000e+000°)	(-2.84705e+001dB,8.78388e+001°)
2.01209e+003	(0.00000e+000dB,0.00000e+000°)	(-2.84273e+001dB,8.78280e+001°)
2.02210e+003	(0.00000e+000dB,0.00000e+000°)	(-2.83842e+001dB,8.78172e+001°)
2.03211e+003	(0.00000e+000dB,0.00000e+000°)	(-2.83414e+001dB,8.78064e+001°)
2.04212e+003	(0.00000e+000dB,0.00000e+000°)	(-2.82988e+001dB,8.77956e+001°)
2.05213e+003	(0.00000e+000dB,0.00000e+000°)	(-2.82564e+001dB,8.77848e+001°)
2.06214e+003	(0.00000e+000dB,0.00000e+000°)	(-2.82142e+001dB,8.77740e+001°)
2.07215e+003	(0.00000e+000dB,0.00000e+000°)	(-2.81722e+001dB,8.77632e+001°)
2.08216e+003	(0.00000e+000dB,0.00000e+000°)	(-2.81304e+001dB,8.77524e+001°)
2.09217e+003	(0.00000e+000dB,0.00000e+000°)	(-2.80888e+001dB,8.77416e+001°)
2.10218e+003	(0.00000e+000dB,0.00000e+000°)	(-2.80474e+001dB,8.77308e+001°)
2.11219e+003	(0.00000e+000dB,0.00000e+000°)	(-2.80062e+001dB,8.77200e+001°)
2.12220e+003	(0.00000e+000dB,0.00000e+000°)	(-2.79652e+001dB,8.77092e+001°)
2.13221e+003	(0.00000e+000dB,0.00000e+000°)	(-2.79244e+001dB,8.76985e+001°)
2.14222e+003	(0.00000e+000dB,0.00000e+000°)	(-2.78838e+001dB,8.76877e+001°)
2.15223e+003	(0.00000e+000dB,0.00000e+000°)	(-2.78433e+001dB,8.76769e+001°)
2.16224e+003	(0.00000e+000dB,0.00000e+000°)	(-2.78031e+001dB,8.76661e+001°)
2.17225e+003	(0.00000e+000dB,0.00000e+000°)	(-2.77631e+001dB,8.76553e+001°)
2.18226e+003	(0.00000e+000dB,0.00000e+000°)	(-2.77232e+001dB,8.76445e+001°)
2.19227e+003	(0.00000e+000dB,0.00000e+000°)	(-2.76835e+001dB,8.76337e+001°)
2.20228e+003	(0.00000e+000dB,0.00000e+000°)	(-2.76440e+001dB,8.76229e+001°)
2.21229e+003	(0.00000e+000dB,0.00000e+000°)	(-2.76047e+001dB,8.76121e+001°)
2.22230e+003	(0.00000e+000dB,0.00000e+000°)	(-2.75655e+001dB,8.76013e+001°)
2.23231e+003	(0.00000e+000dB,0.00000e+000°)	(-2.75266e+001dB,8.75905e+001°)
2.24232e+003	(0.00000e+000dB,0.00000e+000°)	(-2.74878e+001dB,8.75797e+001°)
2.25233e+003	(0.00000e+000dB,0.00000e+000°)	(-2.74492e+001dB,8.75689e+001°)
2.26234e+003	(0.00000e+000dB,0.00000e+000°)	(-2.74107e+001dB,8.75582e+001°)
2.27235e+003	(0.00000e+000dB,0.00000e+000°)	(-2.73724e+001dB,8.75474e+001°)
2.28236e+003	(0.00000e+000dB,0.00000e+000°)	(-2.73343e+001dB,8.75366e+001°)
2.29237e+003	(0.00000e+000dB,0.00000e+000°)	(-2.72964e+001dB,8.75258e+001°)
2.30238e+003	(0.00000e+000dB,0.00000e+000°)	(-2.72586e+001dB,8.75150e+001°)
2.31239e+003	(0.00000e+000dB,0.00000e+000°)	(-2.72210e+001dB,8.75042e+001°)
2.32240e+003	(0.00000e+000dB,0.00000e+000°)	(-2.71836e+001dB,8.74934e+001°)
2.33241e+003	(0.00000e+000dB,0.00000e+000°)	(-2.71463e+001dB,8.74826e+001°)
2.34242e+003	(0.00000e+000dB,0.00000e+000°)	(-2.71091e+001dB,8.74718e+001°)
2.35243e+003	(0.00000e+000dB,0.00000e+000°)	(-2.70722e+001dB,8.74610e+001°)
2.36244e+003	(0.00000e+000dB,0.00000e+000°)	(-2.70354e+001dB,8.74503e+001°)
2.37245e+003	(0.00000e+000dB,0.00000e+000°)	(-2.69987e+001dB,8.74395e+001°)
2.38246e+003	(0.00000e+000dB,0.00000e+000°)	(-2.69622e+001dB,8.74287e+001°)
2.39247e+003	(0.00000e+000dB,0.00000e+000°)	(-2.69259e+001dB,8.74179e+001°)
2.40248e+003	(0.00000e+000dB,0.00000e+000°)	(-2.68897e+001dB,8.74071e+001°)
2.41249e+003	(0.00000e+000dB,0.00000e+000°)	(-2.68536e+001dB,8.73963e+001°)
2.42250e+003	(0.00000e+000dB,0.00000e+000°)	(-2.68178e+001dB,8.73855e+001°)
2.43251e+003	(0.00000e+000dB,0.00000e+000°)	(-2.67820e+001dB,8.73747e+001°)
2.44252e+003	(0.00000e+000dB,0.00000e+000°)	(-2.67464e+001dB,8.73639e+001°)
2.45253e+003	(0.00000e+000dB,0.00000e+000°)	(-2.67110e+001dB,8.73532e+001°)
2.46254e+003	(0.00000e+000dB,0.00000e+000°)	(-2.66757e+001dB,8.73424e+001°)
2.47255e+003	(0.00000e+000dB,0.00000e+000°)	(-2.66405e+001dB,8.73316e+001°)
2.48256e+003	(0.00000e+000dB,0.00000e+000°)	(-2.66055e+001dB,8.73208e+001°)
2.49257e+003	(0.00000e+000dB,0.00000e+000°)	(-2.65706e+001dB,8.73100e+001°)
2.50258e+003	(0.00000e+000dB,0.00000e+000°)	(-2.65359e+001dB,8.72992e+001°)
2.51259e+003	(0.00000e+000dB,0.00000e+000°)	(-2.65013e+001dB,8.72884e+001°)
2.52260e+003	(0.00000e+000dB,0.00000e+000°)	(-2.64668e+001dB,8.72776e+001°)
2.53261e+003	(0.00000e+000dB,0.00000e+000°)	(-2.64325e+001dB,8.72669e+001°)
2.54262e+003	(0.00000e+000dB,0.00000e+000°)	(-2.63983e+001dB,8.72561e+001°)
2.55263e+003	(0.00000e+000dB,0.00000e+000°)	(-2.63643e+001dB,8.72453e+001°)
2.56264e+003	(0.00000e+000dB,0.00000e+000°)	(-2.63304e+001dB,8.72345e+001°)
2.57265e+003	(0.00000e+000dB,0.00000e+000°)	(-2.62966e+001dB,8.72237e+001°)
2.58266e+003	(0.00000e+000dB,0.00000e+000°)	(-2.62629e+001dB,8.72129e+001°)
